T0E5C 8976:059 SEGGER J-Link V6.30h Log File (0000ms, 1878ms total)
T0E5C 8976:059 DLL Compiled: Mar 16 2018 18:02:51 (0000ms, 1878ms total)
T0E5C 8976:059 Logging started @ 2021-01-06 17:44 (0000ms, 1878ms total)
T0E5C 8976:059 JLINK_SetWarnOutHandler(...) (0000ms, 1878ms total)
T0E5C 8976:059 JLINK_OpenEx(...)
Firmware: J-Link ARM-OB STM32 compiled Aug 22 2012 19:52:04
Hardware: V7.00
S/N: 20090928
Feature(s): RDI,FlashDL,FlashBP,JFlash,GDB
TELNET listener socket opened on port 19021WEBSRV 
Starting webserver (0092ms, 1970ms total)
T0E5C 8976:059 WEBSRV Webserver running on local port 19080 (0092ms, 1970ms total)
T0E5C 8976:059   returns O.K. (0092ms, 1970ms total)
T0E5C 8976:151 JLINK_GetEmuCaps()  returns 0x88EA5833 (0000ms, 1970ms total)
T0E5C 8976:152 JLINK_TIF_GetAvailable(...) (0000ms, 1970ms total)
T0E5C 8976:152 JLINK_SetErrorOutHandler(...) (0000ms, 1970ms total)
T0E5C 8976:152 JLINK_ExecCommand("ProjectFile = "G:\git_test\Robot\HD-Robot-Anchor\HD-Anchor-Bootloader V2.0.1\USER\JLinkSettings.ini"", ...).   returns 0x00 (0001ms, 1971ms total)
T0E5C 8976:156 JLINK_ExecCommand("Device = STM32F429VETx", ...). Device "STM32F429VE" selected.  returns 0x00 (0003ms, 1974ms total)
T0E5C 8976:159 JLINK_ExecCommand("DisableConnectionTimeout", ...).   returns 0x01 (0000ms, 1974ms total)
T0E5C 8976:159 JLINK_GetHardwareVersion()  returns 0x11170 (0000ms, 1974ms total)
T0E5C 8976:159 JLINK_GetDLLVersion()  returns 63008 (0000ms, 1974ms total)
T0E5C 8976:159 JLINK_GetFirmwareString(...) (0000ms, 1974ms total)
T0E5C 8976:166 JLINK_GetDLLVersion()  returns 63008 (0000ms, 1974ms total)
T0E5C 8976:166 JLINK_GetCompileDateTime() (0000ms, 1974ms total)
T0E5C 8976:168 JLINK_GetFirmwareString(...) (0000ms, 1974ms total)
T0E5C 8976:170 JLINK_GetHardwareVersion()  returns 0x11170 (0000ms, 1974ms total)
T0E5C 8976:178 JLINK_TIF_Select(JLINKARM_TIF_SWD)  returns 0x00 (0000ms, 1974ms total)
T0E5C 8976:178 JLINK_SetSpeed(5000) (0000ms, 1974ms total)
T0E5C 8976:178 JLINK_GetId() >0x10B TIF>Found SW-DP with ID 0x2BA01477 >0x0D TIF> >0x28 TIF> >0x0D TIF> >0x28 TIF> >0x0D TIF> >0x28 TIF> >0x0D TIF> >0x28 TIF> >0x0D TIF> >0x21 TIF> >0x0D TIF> >0x28 TIF> >0x0D TIF> >0x28 TIF> >0x0D TIF> >0x28 TIF> >0x0D TIF> >0x21 TIF> >0x0D TIF> >0x21 TIF> >0x0D TIF> >0x28 TIF> >0x0D TIF> >0x21 TIF> >0x0D TIF> >0x21 TIF> >0x0D TIF> >0x28 TIF> >0x0D TIF> >0x28 TIF> >0x0D TIF> >0x28 TIF> >0x0D TIF> >0x21 TIF> >0x0D TIF> >0x21 TIF> >0x0D TIF> >0x28 TIF> >0x0D TIF>
 >0x28 TIF> >0x0D TIF> >0x28 TIF> >0x0D TIF> >0x21 TIF> >0x0D TIF> >0x21 TIF> >0x0D TIF> >0x28 TIF> >0x0D TIF> >0x21 TIF> >0x0D TIF> >0x21 TIF> >0x0D TIF> >0x28 TIF> >0x0D TIF> >0x21 TIF> >0x0D TIF> >0x21 TIF> >0x0D TIF> >0x28 TIF> >0x0D TIF> >0x21 TIF> >0x0D TIF> >0x21 TIF> >0x10B TIF>Found SW-DP with ID 0x2BA01477 >0x0D TIF> >0x28 TIF> >0x0D TIF> >0x28 TIF> >0x0D TIF> >0x28 TIF> >0x0D TIF> >0x28 TIF> >0x0D TIF> >0x21 TIF> >0x0D TIF> >0x28 TIF>Scanning AP map to find all available APs >0x0D TIF>
 >0x28 TIF> >0x0D TIF> >0x21 TIF> >0x0D TIF> >0x21 TIF> >0x0D TIF> >0x28 TIF> >0x0D TIF> >0x21 TIF> >0x0D TIF> >0x21 TIF>AP[1]: Stopped AP scan as end of AP map has been reachedAP[0]: AHB-AP (IDR: 0x24770011)Iterating through AP map to find AHB-AP to use >0x42 TIF> >0x28 TIF> >0x0D TIF> >0x28 TIF> >0x0D TIF> >0x21 TIF> >0x0D TIF> >0x21 TIF> >0x42 TIF> >0x28 TIF> >0x0D TIF> >0x28 TIF> >0x0D TIF> >0x28 TIF> >0x0D TIF> >0x21 TIF> >0x0D TIF> >0x21 TIF>AP[0]: Core foundAP[0]: AHB-AP ROM base: 0xE00FF000
 >0x0D TIF> >0x28 TIF> >0x0D TIF> >0x28 TIF> >0x0D TIF> >0x28 TIF> >0x0D TIF> >0x21 TIF> >0x0D TIF> >0x21 TIF>CPUID register: 0x410FC241. Implementer code: 0x41 (ARM)Found Cortex-M4 r0p1, Little endian. -- CPU_ReadMem(4 bytes @ 0xE000EDF0) -- CPU_WriteMem(4 bytes @ 0xE000EDF0) -- CPU_ReadMem(4 bytes @ 0xE0002000)FPUnit: 6 code (BP) slots and 2 literal slots -- CPU_ReadMem(4 bytes @ 0xE000EDFC) -- CPU_WriteMem(4 bytes @ 0xE000EDFC) -- CPU_ReadMem(4 bytes @ 0xE0001000) -- CPU_WriteMem(4 bytes @ 0xE0001000)
 -- CPU_ReadMem(4 bytes @ 0xE000ED88) -- CPU_WriteMem(4 bytes @ 0xE000ED88) -- CPU_ReadMem(4 bytes @ 0xE000ED88) -- CPU_WriteMem(4 bytes @ 0xE000ED88)CoreSight components:ROMTbl[0] @ E00FF000 -- CPU_ReadMem(16 bytes @ 0xE00FF000) -- CPU_ReadMem(16 bytes @ 0xE000EFF0) -- CPU_ReadMem(16 bytes @ 0xE000EFE0)ROMTbl[0][0]: E000E000, CID: B105E00D, PID: 000BB00C SCS-M7 -- CPU_ReadMem(16 bytes @ 0xE0001FF0) -- CPU_ReadMem(16 bytes @ 0xE0001FE0)ROMTbl[0][1]: E0001000, CID: B105E00D, PID: 003BB002 DWT
 -- CPU_ReadMem(16 bytes @ 0xE0002FF0) -- CPU_ReadMem(16 bytes @ 0xE0002FE0)ROMTbl[0][2]: E0002000, CID: B105E00D, PID: 002BB003 FPB -- CPU_ReadMem(16 bytes @ 0xE0000FF0) -- CPU_ReadMem(16 bytes @ 0xE0000FE0)ROMTbl[0][3]: E0000000, CID: B105E00D, PID: 003BB001 ITM -- CPU_ReadMem(16 bytes @ 0xE00FF010) -- CPU_ReadMem(16 bytes @ 0xE0040FF0) -- CPU_ReadMem(16 bytes @ 0xE0040FE0)ROMTbl[0][4]: E0040000, CID: B105900D, PID: 000BB9A1 TPIU -- CPU_ReadMem(16 bytes @ 0xE0041FF0)
 -- CPU_ReadMem(16 bytes @ 0xE0041FE0)ROMTbl[0][5]: E0041000, CID: B105900D, PID: 000BB925 ETM >0x0D TIF> >0x21 TIF>  returns 0x2BA01477 (0179ms, 2153ms total)
T0E5C 8976:358 JLINK_GetDLLVersion()  returns 63008 (0000ms, 2153ms total)
T0E5C 8976:358 JLINK_CORE_GetFound()  returns 0xE0000FF (0000ms, 2153ms total)
T0E5C 8976:358 JLINK_GetDebugInfo(0x100 = JLINKARM_ROM_TABLE_ADDR_INDEX) -- Value=0xE00FF000  returns 0x00 (0000ms, 2153ms total)
T0E5C 8976:360 JLINK_GetDebugInfo(0x100 = JLINKARM_ROM_TABLE_ADDR_INDEX) -- Value=0xE00FF000  returns 0x00 (0000ms, 2153ms total)
T0E5C 8976:360 JLINK_GetDebugInfo(0x101 = JLINKARM_DEBUG_INFO_ETM_ADDR_INDEX) -- Value=0xE0041000  returns 0x00 (0000ms, 2153ms total)
T0E5C 8976:360 JLINK_ReadMemEx(0xE0041FD0, 0x0020 Bytes, ..., Flags = 0x02000004) -- CPU_ReadMem(32 bytes @ 0xE0041FD0) - Data: 04 00 00 00 00 00 00 00 00 00 00 00 00 00 00 00 ...  returns 0x20 (0000ms, 2153ms total)
T0E5C 8976:360 JLINK_GetDebugInfo(0x102 = JLINKARM_DEBUG_INFO_MTB_ADDR_INDEX) -- Value=0x00000000  returns 0x00 (0000ms, 2153ms total)
T0E5C 8976:360 JLINK_GetDebugInfo(0x103 = JLINKARM_DEBUG_INFO_TPIU_ADDR_INDEX) -- Value=0xE0040000  returns 0x00 (0000ms, 2153ms total)
T0E5C 8976:360 JLINK_GetDebugInfo(0x104 = JLINKARM_DEBUG_INFO_ITM_ADDR_INDEX) -- Value=0xE0000000  returns 0x00 (0000ms, 2153ms total)
T0E5C 8976:360 JLINK_GetDebugInfo(0x105 = JLINKARM_DEBUG_INFO_DWT_ADDR_INDEX) -- Value=0xE0001000  returns 0x00 (0000ms, 2153ms total)
T0E5C 8976:360 JLINK_GetDebugInfo(0x106 = JLINKARM_DEBUG_INFO_FPB_ADDR_INDEX) -- Value=0xE0002000  returns 0x00 (0000ms, 2153ms total)
T0E5C 8976:360 JLINK_GetDebugInfo(0x107 = JLINKARM_DEBUG_INFO_NVIC_ADDR_INDEX) -- Value=0xE000E000  returns 0x00 (0000ms, 2153ms total)
T0E5C 8976:361 JLINK_GetDebugInfo(0x10C = JLINKARM_DEBUG_INFO_DBG_ADDR_INDEX) -- Value=0xE000EDF0  returns 0x00 (0000ms, 2154ms total)
T0E5C 8976:361 JLINK_GetDebugInfo(0x01 = Unknown) -- Value=0x00000001  returns 0x00 (0000ms, 2154ms total)
T0E5C 8976:361 JLINK_ReadMemU32(0xE000ED00, 0x0001 Items, ...) -- CPU_ReadMem(4 bytes @ 0xE000ED00) - Data: 41 C2 0F 41  returns 0x01 (0000ms, 2154ms total)
T0E5C 8976:361 JLINK_GetDebugInfo(0x10F = JLINKARM_DEBUG_INFO_HAS_CORTEX_M_SECURITY_EXT_INDEX) -- Value=0x00000000  returns 0x00 (0000ms, 2154ms total)
T0E5C 8976:361 JLINK_SetResetType(JLINKARM_CM3_RESET_TYPE_NORMAL)  returns JLINKARM_CM3_RESET_TYPE_NORMAL (0000ms, 2154ms total)
T0E5C 8976:361 JLINK_Reset() -- CPU is running -- CPU_WriteMem(4 bytes @ 0xE000EDF0) -- CPU is running -- CPU_WriteMem(4 bytes @ 0xE000EDFC)Reset: Halt core after reset via DEMCR.VC_CORERESET. >0x35 TIF>Reset: Reset device via AIRCR.SYSRESETREQ. -- CPU is running -- CPU_WriteMem(4 bytes @ 0xE000ED0C) >0x0D TIF> >0x28 TIF> -- CPU_ReadMem(4 bytes @ 0xE000EDF0) -- CPU_ReadMem(4 bytes @ 0xE000EDF0) -- CPU is running -- CPU_WriteMem(4 bytes @ 0xE000EDF0) -- CPU is running -- CPU_WriteMem(4 bytes @ 0xE000EDFC)
 -- CPU_ReadMem(4 bytes @ 0xE000EDF0) -- CPU_WriteMem(4 bytes @ 0xE0002000) -- CPU_ReadMem(4 bytes @ 0xE000EDFC) -- CPU_ReadMem(4 bytes @ 0xE0001000) (0072ms, 2226ms total)
T0E5C 8976:434 JLINK_Halt()  returns 0x00 (0000ms, 2226ms total)
T0E5C 8976:434 JLINK_ReadMemU32(0xE000EDF0, 0x0001 Items, ...) -- CPU_ReadMem(4 bytes @ 0xE000EDF0) - Data: 03 00 03 00  returns 0x01 (0000ms, 2226ms total)
T0E5C 8976:434 JLINK_WriteU32(0xE000EDF0, 0xA05F0003) -- CPU_WriteMem(4 bytes @ 0xE000EDF0)  returns 0x00 (0000ms, 2226ms total)
T0E5C 8976:434 JLINK_WriteU32(0xE000EDFC, 0x01000000) -- CPU_WriteMem(4 bytes @ 0xE000EDFC)  returns 0x00 (0000ms, 2226ms total)
T0E5C 8976:442 JLINK_GetHWStatus(...)  returns 0x00 (0000ms, 2226ms total)
T0E5C 8976:450 JLINK_GetNumBPUnits(Type = 0xFFFFFF00)  returns 0x06 (0000ms, 2226ms total)
T0E5C 8976:450 JLINK_GetNumBPUnits(Type = 0xF0)  returns 0x2000 (0000ms, 2226ms total)
T0E5C 8976:450 JLINK_GetNumWPUnits()  returns 0x04 (0000ms, 2226ms total)
T0E5C 8976:456 JLINK_GetSpeed()  returns 0xFA0 (0000ms, 2226ms total)
T0E5C 8976:461 JLINK_ReadMemU32(0xE000E004, 0x0001 Items, ...) -- CPU_ReadMem(4 bytes @ 0xE000E004) - Data: 02 00 00 00  returns 0x01 (0001ms, 2227ms total)
T0E5C 8976:462 JLINK_ReadMemU32(0xE000E004, 0x0001 Items, ...) -- CPU_ReadMem(4 bytes @ 0xE000E004) - Data: 02 00 00 00  returns 0x01 (0000ms, 2227ms total)
T0E5C 8976:462 JLINK_WriteMemEx(0xE0001000, 0x001C Bytes, ..., Flags = 0x02000004) - Data: 01 00 00 00 00 00 00 00 00 00 00 00 00 00 00 00 ... -- CPU_WriteMem(28 bytes @ 0xE0001000)  returns 0x1C (0001ms, 2228ms total)
T0E5C 8976:463 JLINK_Halt()  returns 0x00 (0000ms, 2228ms total)
T0E5C 8976:463 JLINK_IsHalted()  returns TRUE (0000ms, 2228ms total)
T0E5C 8976:465 JLINK_WriteMem(0x20000000, 0x0188 Bytes, ...) - Data: 00 BE 0A E0 0D 78 2D 06 68 40 08 24 40 00 00 D3 ... -- CPU_WriteMem(392 bytes @ 0x20000000)  returns 0x188 (0006ms, 2234ms total)
T0E5C 8976:471 JLINK_WriteReg(R0, 0x08000000)  returns 0x00 (0000ms, 2234ms total)
T0E5C 8976:471 JLINK_WriteReg(R1, 0x00B71B00)  returns 0x00 (0000ms, 2234ms total)
T0E5C 8976:471 JLINK_WriteReg(R2, 0x00000001)  returns 0x00 (0000ms, 2234ms total)
T0E5C 8976:471 JLINK_WriteReg(R3, 0x00000000)  returns 0x00 (0000ms, 2234ms total)
T0E5C 8976:471 JLINK_WriteReg(R4, 0x00000000)  returns 0x00 (0000ms, 2234ms total)
T0E5C 8976:471 JLINK_WriteReg(R5, 0x00000000)  returns 0x00 (0000ms, 2234ms total)
T0E5C 8976:471 JLINK_WriteReg(R6, 0x00000000)  returns 0x00 (0000ms, 2234ms total)
T0E5C 8976:471 JLINK_WriteReg(R7, 0x00000000)  returns 0x00 (0000ms, 2234ms total)
T0E5C 8976:471 JLINK_WriteReg(R8, 0x00000000)  returns 0x00 (0000ms, 2234ms total)
T0E5C 8976:471 JLINK_WriteReg(R9, 0x20000184)  returns 0x00 (0000ms, 2234ms total)
T0E5C 8976:471 JLINK_WriteReg(R10, 0x00000000)  returns 0x00 (0000ms, 2234ms total)
T0E5C 8976:471 JLINK_WriteReg(R11, 0x00000000)  returns 0x00 (0000ms, 2234ms total)
T0E5C 8976:471 JLINK_WriteReg(R12, 0x00000000)  returns 0x00 (0000ms, 2234ms total)
T0E5C 8976:471 JLINK_WriteReg(R13 (SP), 0x20001000)  returns 0x00 (0000ms, 2234ms total)
T0E5C 8976:471 JLINK_WriteReg(R14, 0x20000001)  returns 0x00 (0000ms, 2234ms total)
T0E5C 8976:471 JLINK_WriteReg(R15 (PC), 0x2000005E)  returns 0x00 (0000ms, 2234ms total)
T0E5C 8976:471 JLINK_WriteReg(XPSR, 0x01000000)  returns 0x00 (0000ms, 2234ms total)
T0E5C 8976:471 JLINK_WriteReg(MSP, 0x20001000)  returns 0x00 (0000ms, 2234ms total)
T0E5C 8976:471 JLINK_WriteReg(PSP, 0x20001000)  returns 0x00 (0000ms, 2234ms total)
T0E5C 8976:471 JLINK_WriteReg(CFBP, 0x00000000)  returns 0x00 (0000ms, 2234ms total)
T0E5C 8976:471 JLINK_SetBPEx(Addr = 0x20000000, Type = 0xFFFFFFF2) -- CPU_ReadMem(2 bytes @ 0x20000000)  returns 0x00000001 (0001ms, 2235ms total)
T0E5C 8976:472 JLINK_Go() -- CPU_WriteMem(2 bytes @ 0x20000000) -- CPU_ReadMem(4 bytes @ 0xE0001000) -- CPU_WriteMem(4 bytes @ 0xE0002008) -- CPU_WriteMem(4 bytes @ 0xE000200C) -- CPU_WriteMem(4 bytes @ 0xE0002010) -- CPU_WriteMem(4 bytes @ 0xE0002014) -- CPU_WriteMem(4 bytes @ 0xE0002018) -- CPU_WriteMem(4 bytes @ 0xE000201C) -- CPU_WriteMem(4 bytes @ 0xE0001004) (0005ms, 2240ms total)
T0E5C 8976:477 JLINK_IsHalted() -- CPU_ReadMem(2 bytes @ 0x20000000)  returns TRUE (0004ms, 2244ms total)
T0E5C 8976:481 JLINK_ReadReg(R15 (PC))  returns 0x20000000 (0000ms, 2240ms total)
T0E5C 8976:481 JLINK_ClrBPEx(BPHandle = 0x00000001)  returns 0x00 (0000ms, 2240ms total)
T0E5C 8976:481 JLINK_ReadReg(R0)  returns 0x00000000 (0000ms, 2240ms total)
T0E5C 8976:481 JLINK_WriteReg(R0, 0x08000000)  returns 0x00 (0000ms, 2240ms total)
T0E5C 8976:481 JLINK_WriteReg(R1, 0x00004000)  returns 0x00 (0000ms, 2240ms total)
T0E5C 8976:481 JLINK_WriteReg(R2, 0x000000FF)  returns 0x00 (0000ms, 2240ms total)
T0E5C 8976:481 JLINK_WriteReg(R3, 0x00000000)  returns 0x00 (0000ms, 2240ms total)
T0E5C 8976:481 JLINK_WriteReg(R4, 0x00000000)  returns 0x00 (0000ms, 2240ms total)
T0E5C 8976:481 JLINK_WriteReg(R5, 0x00000000)  returns 0x00 (0000ms, 2240ms total)
T0E5C 8976:481 JLINK_WriteReg(R6, 0x00000000)  returns 0x00 (0000ms, 2240ms total)
T0E5C 8976:481 JLINK_WriteReg(R7, 0x00000000)  returns 0x00 (0000ms, 2240ms total)
T0E5C 8976:481 JLINK_WriteReg(R8, 0x00000000)  returns 0x00 (0000ms, 2240ms total)
T0E5C 8976:481 JLINK_WriteReg(R9, 0x20000184)  returns 0x00 (0000ms, 2240ms total)
T0E5C 8976:481 JLINK_WriteReg(R10, 0x00000000)  returns 0x00 (0000ms, 2240ms total)
T0E5C 8976:481 JLINK_WriteReg(R11, 0x00000000)  returns 0x00 (0000ms, 2240ms total)
T0E5C 8976:481 JLINK_WriteReg(R12, 0x00000000)  returns 0x00 (0000ms, 2240ms total)
T0E5C 8976:481 JLINK_WriteReg(R13 (SP), 0x20001000)  returns 0x00 (0000ms, 2240ms total)
T0E5C 8976:481 JLINK_WriteReg(R14, 0x20000001)  returns 0x00 (0000ms, 2240ms total)
T0E5C 8976:481 JLINK_WriteReg(R15 (PC), 0x20000020)  returns 0x00 (0000ms, 2240ms total)
T0E5C 8976:481 JLINK_WriteReg(XPSR, 0x01000000)  returns 0x00 (0000ms, 2240ms total)
T0E5C 8976:481 JLINK_WriteReg(MSP, 0x20001000)  returns 0x00 (0000ms, 2240ms total)
T0E5C 8976:481 JLINK_WriteReg(PSP, 0x20001000)  returns 0x00 (0000ms, 2240ms total)
T0E5C 8976:481 JLINK_WriteReg(CFBP, 0x00000000)  returns 0x00 (0000ms, 2240ms total)
T0E5C 8976:481 JLINK_SetBPEx(Addr = 0x20000000, Type = 0xFFFFFFF2)  returns 0x00000002 (0000ms, 2240ms total)
T0E5C 8976:481 JLINK_Go() -- CPU_ReadMem(4 bytes @ 0xE0001000) (0002ms, 2242ms total)
T0E5C 8976:483 JLINK_IsHalted()  returns FALSE (0000ms, 2242ms total)
T0E5C 8976:544 JLINK_IsHalted() -- CPU_ReadMem(2 bytes @ 0x20000000)  returns TRUE (0003ms, 2245ms total)
T0E5C 8976:547 JLINK_ReadReg(R15 (PC))  returns 0x20000000 (0000ms, 2242ms total)
T0E5C 8976:547 JLINK_ClrBPEx(BPHandle = 0x00000002)  returns 0x00 (0000ms, 2242ms total)
T0E5C 8976:547 JLINK_ReadReg(R0)  returns 0x00000000 (0000ms, 2242ms total)
T0E5C 8976:548 JLINK_WriteReg(R0, 0x08004000)  returns 0x00 (0000ms, 2242ms total)
T0E5C 8976:548 JLINK_WriteReg(R1, 0x00004000)  returns 0x00 (0000ms, 2242ms total)
T0E5C 8976:548 JLINK_WriteReg(R2, 0x000000FF)  returns 0x00 (0000ms, 2242ms total)
T0E5C 8976:548 JLINK_WriteReg(R3, 0x00000000)  returns 0x00 (0000ms, 2242ms total)
T0E5C 8976:548 JLINK_WriteReg(R4, 0x00000000)  returns 0x00 (0000ms, 2242ms total)
T0E5C 8976:548 JLINK_WriteReg(R5, 0x00000000)  returns 0x00 (0000ms, 2242ms total)
T0E5C 8976:548 JLINK_WriteReg(R6, 0x00000000)  returns 0x00 (0000ms, 2242ms total)
T0E5C 8976:548 JLINK_WriteReg(R7, 0x00000000)  returns 0x00 (0000ms, 2242ms total)
T0E5C 8976:548 JLINK_WriteReg(R8, 0x00000000)  returns 0x00 (0000ms, 2242ms total)
T0E5C 8976:548 JLINK_WriteReg(R9, 0x20000184)  returns 0x00 (0000ms, 2242ms total)
T0E5C 8976:548 JLINK_WriteReg(R10, 0x00000000)  returns 0x00 (0000ms, 2242ms total)
T0E5C 8976:548 JLINK_WriteReg(R11, 0x00000000)  returns 0x00 (0000ms, 2242ms total)
T0E5C 8976:548 JLINK_WriteReg(R12, 0x00000000)  returns 0x00 (0000ms, 2242ms total)
T0E5C 8976:548 JLINK_WriteReg(R13 (SP), 0x20001000)  returns 0x00 (0000ms, 2242ms total)
T0E5C 8976:548 JLINK_WriteReg(R14, 0x20000001)  returns 0x00 (0000ms, 2242ms total)
T0E5C 8976:548 JLINK_WriteReg(R15 (PC), 0x20000020)  returns 0x00 (0000ms, 2242ms total)
T0E5C 8976:548 JLINK_WriteReg(XPSR, 0x01000000)  returns 0x00 (0000ms, 2242ms total)
T0E5C 8976:548 JLINK_WriteReg(MSP, 0x20001000)  returns 0x00 (0000ms, 2242ms total)
T0E5C 8976:548 JLINK_WriteReg(PSP, 0x20001000)  returns 0x00 (0000ms, 2242ms total)
T0E5C 8976:548 JLINK_WriteReg(CFBP, 0x00000000)  returns 0x00 (0000ms, 2242ms total)
T0E5C 8976:548 JLINK_SetBPEx(Addr = 0x20000000, Type = 0xFFFFFFF2)  returns 0x00000003 (0000ms, 2242ms total)
T0E5C 8976:548 JLINK_Go() -- CPU_ReadMem(4 bytes @ 0xE0001000) (0002ms, 2244ms total)
T0E5C 8976:550 JLINK_IsHalted()  returns FALSE (0000ms, 2244ms total)
T0E5C 8976:552 JLINK_IsHalted()  returns FALSE (0000ms, 2244ms total)
T0E5C 8976:554 JLINK_IsHalted()  returns FALSE (0000ms, 2244ms total)
T0E5C 8976:556 JLINK_IsHalted()  returns FALSE (0000ms, 2244ms total)
T0E5C 8976:558 JLINK_IsHalted()  returns FALSE (0000ms, 2244ms total)
T0E5C 8976:560 JLINK_IsHalted()  returns FALSE (0000ms, 2244ms total)
T0E5C 8976:562 JLINK_IsHalted()  returns FALSE (0000ms, 2244ms total)
T0E5C 8976:564 JLINK_IsHalted()  returns FALSE (0000ms, 2244ms total)
T0E5C 8976:566 JLINK_IsHalted() -- CPU_ReadMem(2 bytes @ 0x20000000)  returns TRUE (0003ms, 2247ms total)
T0E5C 8976:569 JLINK_ReadReg(R15 (PC))  returns 0x20000000 (0000ms, 2244ms total)
T0E5C 8976:569 JLINK_ClrBPEx(BPHandle = 0x00000003)  returns 0x00 (0000ms, 2244ms total)
T0E5C 8976:569 JLINK_ReadReg(R0)  returns 0x00000000 (0000ms, 2244ms total)
T0E5C 8976:570 JLINK_WriteReg(R0, 0x08008000)  returns 0x00 (0000ms, 2244ms total)
T0E5C 8976:570 JLINK_WriteReg(R1, 0x00004000)  returns 0x00 (0000ms, 2244ms total)
T0E5C 8976:570 JLINK_WriteReg(R2, 0x000000FF)  returns 0x00 (0000ms, 2244ms total)
T0E5C 8976:570 JLINK_WriteReg(R3, 0x00000000)  returns 0x00 (0000ms, 2244ms total)
T0E5C 8976:570 JLINK_WriteReg(R4, 0x00000000)  returns 0x00 (0000ms, 2244ms total)
T0E5C 8976:570 JLINK_WriteReg(R5, 0x00000000)  returns 0x00 (0000ms, 2244ms total)
T0E5C 8976:570 JLINK_WriteReg(R6, 0x00000000)  returns 0x00 (0000ms, 2244ms total)
T0E5C 8976:570 JLINK_WriteReg(R7, 0x00000000)  returns 0x00 (0000ms, 2244ms total)
T0E5C 8976:570 JLINK_WriteReg(R8, 0x00000000)  returns 0x00 (0000ms, 2244ms total)
T0E5C 8976:570 JLINK_WriteReg(R9, 0x20000184)  returns 0x00 (0000ms, 2244ms total)
T0E5C 8976:570 JLINK_WriteReg(R10, 0x00000000)  returns 0x00 (0000ms, 2244ms total)
T0E5C 8976:570 JLINK_WriteReg(R11, 0x00000000)  returns 0x00 (0000ms, 2244ms total)
T0E5C 8976:570 JLINK_WriteReg(R12, 0x00000000)  returns 0x00 (0000ms, 2244ms total)
T0E5C 8976:570 JLINK_WriteReg(R13 (SP), 0x20001000)  returns 0x00 (0000ms, 2244ms total)
T0E5C 8976:570 JLINK_WriteReg(R14, 0x20000001)  returns 0x00 (0000ms, 2244ms total)
T0E5C 8976:570 JLINK_WriteReg(R15 (PC), 0x20000020)  returns 0x00 (0000ms, 2244ms total)
T0E5C 8976:570 JLINK_WriteReg(XPSR, 0x01000000)  returns 0x00 (0000ms, 2244ms total)
T0E5C 8976:570 JLINK_WriteReg(MSP, 0x20001000)  returns 0x00 (0000ms, 2244ms total)
T0E5C 8976:570 JLINK_WriteReg(PSP, 0x20001000)  returns 0x00 (0000ms, 2244ms total)
T0E5C 8976:570 JLINK_WriteReg(CFBP, 0x00000000)  returns 0x00 (0000ms, 2244ms total)
T0E5C 8976:570 JLINK_SetBPEx(Addr = 0x20000000, Type = 0xFFFFFFF2)  returns 0x00000004 (0000ms, 2244ms total)
T0E5C 8976:570 JLINK_Go() -- CPU_ReadMem(4 bytes @ 0xE0001000) (0002ms, 2246ms total)
T0E5C 8976:572 JLINK_IsHalted()  returns FALSE (0000ms, 2246ms total)
T0E5C 8976:576 JLINK_IsHalted()  returns FALSE (0000ms, 2246ms total)
T0E5C 8976:578 JLINK_IsHalted()  returns FALSE (0000ms, 2246ms total)
T0E5C 8976:582 JLINK_IsHalted()  returns FALSE (0000ms, 2246ms total)
T0E5C 8976:584 JLINK_IsHalted()  returns FALSE (0000ms, 2246ms total)
T0E5C 8976:586 JLINK_IsHalted()  returns FALSE (0000ms, 2246ms total)
T0E5C 8976:588 JLINK_IsHalted() -- CPU_ReadMem(2 bytes @ 0x20000000)  returns TRUE (0003ms, 2249ms total)
T0E5C 8976:591 JLINK_ReadReg(R15 (PC))  returns 0x20000000 (0000ms, 2246ms total)
T0E5C 8976:591 JLINK_ClrBPEx(BPHandle = 0x00000004)  returns 0x00 (0000ms, 2246ms total)
T0E5C 8976:591 JLINK_ReadReg(R0)  returns 0x00000000 (0000ms, 2246ms total)
T0E5C 8976:592 JLINK_WriteReg(R0, 0x0800C000)  returns 0x00 (0000ms, 2246ms total)
T0E5C 8976:592 JLINK_WriteReg(R1, 0x00004000)  returns 0x00 (0000ms, 2246ms total)
T0E5C 8976:592 JLINK_WriteReg(R2, 0x000000FF)  returns 0x00 (0000ms, 2246ms total)
T0E5C 8976:592 JLINK_WriteReg(R3, 0x00000000)  returns 0x00 (0000ms, 2246ms total)
T0E5C 8976:592 JLINK_WriteReg(R4, 0x00000000)  returns 0x00 (0000ms, 2246ms total)
T0E5C 8976:592 JLINK_WriteReg(R5, 0x00000000)  returns 0x00 (0000ms, 2246ms total)
T0E5C 8976:592 JLINK_WriteReg(R6, 0x00000000)  returns 0x00 (0000ms, 2246ms total)
T0E5C 8976:592 JLINK_WriteReg(R7, 0x00000000)  returns 0x00 (0000ms, 2246ms total)
T0E5C 8976:592 JLINK_WriteReg(R8, 0x00000000)  returns 0x00 (0000ms, 2246ms total)
T0E5C 8976:592 JLINK_WriteReg(R9, 0x20000184)  returns 0x00 (0000ms, 2246ms total)
T0E5C 8976:592 JLINK_WriteReg(R10, 0x00000000)  returns 0x00 (0000ms, 2246ms total)
T0E5C 8976:592 JLINK_WriteReg(R11, 0x00000000)  returns 0x00 (0000ms, 2246ms total)
T0E5C 8976:592 JLINK_WriteReg(R12, 0x00000000)  returns 0x00 (0000ms, 2246ms total)
T0E5C 8976:592 JLINK_WriteReg(R13 (SP), 0x20001000)  returns 0x00 (0000ms, 2246ms total)
T0E5C 8976:592 JLINK_WriteReg(R14, 0x20000001)  returns 0x00 (0000ms, 2246ms total)
T0E5C 8976:592 JLINK_WriteReg(R15 (PC), 0x20000020)  returns 0x00 (0000ms, 2246ms total)
T0E5C 8976:592 JLINK_WriteReg(XPSR, 0x01000000)  returns 0x00 (0000ms, 2246ms total)
T0E5C 8976:592 JLINK_WriteReg(MSP, 0x20001000)  returns 0x00 (0000ms, 2246ms total)
T0E5C 8976:592 JLINK_WriteReg(PSP, 0x20001000)  returns 0x00 (0000ms, 2246ms total)
T0E5C 8976:592 JLINK_WriteReg(CFBP, 0x00000000)  returns 0x00 (0000ms, 2246ms total)
T0E5C 8976:592 JLINK_SetBPEx(Addr = 0x20000000, Type = 0xFFFFFFF2)  returns 0x00000005 (0000ms, 2246ms total)
T0E5C 8976:592 JLINK_Go() -- CPU_ReadMem(4 bytes @ 0xE0001000) (0002ms, 2248ms total)
T0E5C 8976:594 JLINK_IsHalted()  returns FALSE (0001ms, 2249ms total)
T0E5C 8976:597 JLINK_IsHalted()  returns FALSE (0000ms, 2248ms total)
T0E5C 8976:599 JLINK_IsHalted()  returns FALSE (0000ms, 2248ms total)
T0E5C 8976:601 JLINK_IsHalted()  returns FALSE (0000ms, 2248ms total)
T0E5C 8976:603 JLINK_IsHalted()  returns FALSE (0000ms, 2248ms total)
T0E5C 8976:605 JLINK_IsHalted()  returns FALSE (0000ms, 2248ms total)
T0E5C 8976:607 JLINK_IsHalted()  returns FALSE (0000ms, 2248ms total)
T0E5C 8976:609 JLINK_IsHalted() -- CPU_ReadMem(2 bytes @ 0x20000000)  returns TRUE (0003ms, 2251ms total)
T0E5C 8976:612 JLINK_ReadReg(R15 (PC))  returns 0x20000000 (0000ms, 2248ms total)
T0E5C 8976:612 JLINK_ClrBPEx(BPHandle = 0x00000005)  returns 0x00 (0000ms, 2248ms total)
T0E5C 8976:612 JLINK_ReadReg(R0)  returns 0x00000000 (0000ms, 2248ms total)
T0E5C 8976:625 JLINK_WriteReg(R0, 0x00000001)  returns 0x00 (0000ms, 2248ms total)
T0E5C 8976:625 JLINK_WriteReg(R1, 0x00004000)  returns 0x00 (0000ms, 2248ms total)
T0E5C 8976:625 JLINK_WriteReg(R2, 0x000000FF)  returns 0x00 (0000ms, 2248ms total)
T0E5C 8976:625 JLINK_WriteReg(R3, 0x00000000)  returns 0x00 (0000ms, 2248ms total)
T0E5C 8976:625 JLINK_WriteReg(R4, 0x00000000)  returns 0x00 (0000ms, 2248ms total)
T0E5C 8976:625 JLINK_WriteReg(R5, 0x00000000)  returns 0x00 (0000ms, 2248ms total)
T0E5C 8976:625 JLINK_WriteReg(R6, 0x00000000)  returns 0x00 (0000ms, 2248ms total)
T0E5C 8976:625 JLINK_WriteReg(R7, 0x00000000)  returns 0x00 (0000ms, 2248ms total)
T0E5C 8976:625 JLINK_WriteReg(R8, 0x00000000)  returns 0x00 (0000ms, 2248ms total)
T0E5C 8976:625 JLINK_WriteReg(R9, 0x20000184)  returns 0x00 (0000ms, 2248ms total)
T0E5C 8976:625 JLINK_WriteReg(R10, 0x00000000)  returns 0x00 (0000ms, 2248ms total)
T0E5C 8976:625 JLINK_WriteReg(R11, 0x00000000)  returns 0x00 (0000ms, 2248ms total)
T0E5C 8976:625 JLINK_WriteReg(R12, 0x00000000)  returns 0x00 (0000ms, 2248ms total)
T0E5C 8976:625 JLINK_WriteReg(R13 (SP), 0x20001000)  returns 0x00 (0000ms, 2248ms total)
T0E5C 8976:625 JLINK_WriteReg(R14, 0x20000001)  returns 0x00 (0000ms, 2248ms total)
T0E5C 8976:625 JLINK_WriteReg(R15 (PC), 0x2000008C)  returns 0x00 (0000ms, 2248ms total)
T0E5C 8976:625 JLINK_WriteReg(XPSR, 0x01000000)  returns 0x00 (0000ms, 2248ms total)
T0E5C 8976:625 JLINK_WriteReg(MSP, 0x20001000)  returns 0x00 (0000ms, 2248ms total)
T0E5C 8976:625 JLINK_WriteReg(PSP, 0x20001000)  returns 0x00 (0000ms, 2248ms total)
T0E5C 8976:625 JLINK_WriteReg(CFBP, 0x00000000)  returns 0x00 (0000ms, 2248ms total)
T0E5C 8976:625 JLINK_SetBPEx(Addr = 0x20000000, Type = 0xFFFFFFF2)  returns 0x00000006 (0000ms, 2248ms total)
T0E5C 8976:625 JLINK_Go() -- CPU_ReadMem(4 bytes @ 0xE0001000) (0002ms, 2250ms total)
T0E5C 8976:627 JLINK_IsHalted() -- CPU_ReadMem(2 bytes @ 0x20000000)  returns TRUE (0004ms, 2254ms total)
T0E5C 8976:631 JLINK_ReadReg(R15 (PC))  returns 0x20000000 (0000ms, 2250ms total)
T0E5C 8976:631 JLINK_ClrBPEx(BPHandle = 0x00000006)  returns 0x00 (0000ms, 2250ms total)
T0E5C 8976:631 JLINK_ReadReg(R0)  returns 0x00000000 (0000ms, 2250ms total)
T0E5C 8976:686 JLINK_WriteMem(0x20000000, 0x0188 Bytes, ...) - Data: 00 BE 0A E0 0D 78 2D 06 68 40 08 24 40 00 00 D3 ... -- CPU_WriteMem(392 bytes @ 0x20000000)  returns 0x188 (0005ms, 2255ms total)
T0E5C 8976:691 JLINK_WriteReg(R0, 0x08000000)  returns 0x00 (0000ms, 2255ms total)
T0E5C 8976:691 JLINK_WriteReg(R1, 0x00B71B00)  returns 0x00 (0000ms, 2255ms total)
T0E5C 8976:691 JLINK_WriteReg(R2, 0x00000002)  returns 0x00 (0000ms, 2255ms total)
T0E5C 8976:691 JLINK_WriteReg(R3, 0x00000000)  returns 0x00 (0000ms, 2255ms total)
T0E5C 8976:691 JLINK_WriteReg(R4, 0x00000000)  returns 0x00 (0000ms, 2255ms total)
T0E5C 8976:691 JLINK_WriteReg(R5, 0x00000000)  returns 0x00 (0000ms, 2255ms total)
T0E5C 8976:691 JLINK_WriteReg(R6, 0x00000000)  returns 0x00 (0000ms, 2255ms total)
T0E5C 8976:691 JLINK_WriteReg(R7, 0x00000000)  returns 0x00 (0000ms, 2255ms total)
T0E5C 8976:691 JLINK_WriteReg(R8, 0x00000000)  returns 0x00 (0000ms, 2255ms total)
T0E5C 8976:691 JLINK_WriteReg(R9, 0x20000184)  returns 0x00 (0001ms, 2256ms total)
T0E5C 8976:692 JLINK_WriteReg(R10, 0x00000000)  returns 0x00 (0000ms, 2256ms total)
T0E5C 8976:692 JLINK_WriteReg(R11, 0x00000000)  returns 0x00 (0000ms, 2256ms total)
T0E5C 8976:692 JLINK_WriteReg(R12, 0x00000000)  returns 0x00 (0000ms, 2256ms total)
T0E5C 8976:692 JLINK_WriteReg(R13 (SP), 0x20001000)  returns 0x00 (0000ms, 2256ms total)
T0E5C 8976:692 JLINK_WriteReg(R14, 0x20000001)  returns 0x00 (0000ms, 2256ms total)
T0E5C 8976:692 JLINK_WriteReg(R15 (PC), 0x2000005E)  returns 0x00 (0000ms, 2256ms total)
T0E5C 8976:692 JLINK_WriteReg(XPSR, 0x01000000)  returns 0x00 (0000ms, 2256ms total)
T0E5C 8976:692 JLINK_WriteReg(MSP, 0x20001000)  returns 0x00 (0000ms, 2256ms total)
T0E5C 8976:692 JLINK_WriteReg(PSP, 0x20001000)  returns 0x00 (0000ms, 2256ms total)
T0E5C 8976:692 JLINK_WriteReg(CFBP, 0x00000000)  returns 0x00 (0000ms, 2256ms total)
T0E5C 8976:692 JLINK_SetBPEx(Addr = 0x20000000, Type = 0xFFFFFFF2) -- CPU_ReadMem(2 bytes @ 0x20000000)  returns 0x00000007 (0000ms, 2256ms total)
T0E5C 8976:692 JLINK_Go() -- CPU_WriteMem(2 bytes @ 0x20000000) -- CPU_ReadMem(4 bytes @ 0xE0001000) (0002ms, 2258ms total)
T0E5C 8976:694 JLINK_IsHalted() -- CPU_ReadMem(2 bytes @ 0x20000000)  returns TRUE (0004ms, 2262ms total)
T0E5C 8976:698 JLINK_ReadReg(R15 (PC))  returns 0x20000000 (0000ms, 2258ms total)
T0E5C 8976:698 JLINK_ClrBPEx(BPHandle = 0x00000007)  returns 0x00 (0000ms, 2258ms total)
T0E5C 8976:698 JLINK_ReadReg(R0)  returns 0x00000000 (0000ms, 2258ms total)
T0E5C 8976:698 JLINK_WriteMem(0x20000188, 0x0278 Bytes, ...) - Data: C8 BD 02 20 D5 01 00 08 E9 31 00 08 3D 31 00 08 ... -- CPU_WriteMem(632 bytes @ 0x20000188)  returns 0x278 (0008ms, 2266ms total)
T0E5C 8976:706 JLINK_WriteMem(0x20000400, 0x0188 Bytes, ...) - Data: 52 1E F9 D2 70 47 D2 B2 01 E0 00 F8 01 2B 49 1E ... -- CPU_WriteMem(392 bytes @ 0x20000400)  returns 0x188 (0005ms, 2271ms total)
T0E5C 8976:711 JLINK_WriteReg(R0, 0x08000000)  returns 0x00 (0000ms, 2271ms total)
T0E5C 8976:711 JLINK_WriteReg(R1, 0x00000400)  returns 0x00 (0000ms, 2271ms total)
T0E5C 8976:711 JLINK_WriteReg(R2, 0x20000188)  returns 0x00 (0000ms, 2271ms total)
T0E5C 8976:711 JLINK_WriteReg(R3, 0x00000000)  returns 0x00 (0000ms, 2271ms total)
T0E5C 8976:711 JLINK_WriteReg(R4, 0x00000000)  returns 0x00 (0000ms, 2271ms total)
T0E5C 8976:711 JLINK_WriteReg(R5, 0x00000000)  returns 0x00 (0000ms, 2271ms total)
T0E5C 8976:711 JLINK_WriteReg(R6, 0x00000000)  returns 0x00 (0000ms, 2271ms total)
T0E5C 8976:711 JLINK_WriteReg(R7, 0x00000000)  returns 0x00 (0000ms, 2271ms total)
T0E5C 8976:711 JLINK_WriteReg(R8, 0x00000000)  returns 0x00 (0000ms, 2271ms total)
T0E5C 8976:711 JLINK_WriteReg(R9, 0x20000184)  returns 0x00 (0000ms, 2271ms total)
T0E5C 8976:711 JLINK_WriteReg(R10, 0x00000000)  returns 0x00 (0000ms, 2271ms total)
T0E5C 8976:711 JLINK_WriteReg(R11, 0x00000000)  returns 0x00 (0000ms, 2271ms total)
T0E5C 8976:711 JLINK_WriteReg(R12, 0x00000000)  returns 0x00 (0000ms, 2271ms total)
T0E5C 8976:711 JLINK_WriteReg(R13 (SP), 0x20001000)  returns 0x00 (0000ms, 2271ms total)
T0E5C 8976:711 JLINK_WriteReg(R14, 0x20000001)  returns 0x00 (0000ms, 2271ms total)
T0E5C 8976:711 JLINK_WriteReg(R15 (PC), 0x20000112)  returns 0x00 (0000ms, 2271ms total)
T0E5C 8976:711 JLINK_WriteReg(XPSR, 0x01000000)  returns 0x00 (0000ms, 2271ms total)
T0E5C 8976:711 JLINK_WriteReg(MSP, 0x20001000)  returns 0x00 (0000ms, 2271ms total)
T0E5C 8976:711 JLINK_WriteReg(PSP, 0x20001000)  returns 0x00 (0000ms, 2271ms total)
T0E5C 8976:711 JLINK_WriteReg(CFBP, 0x00000000)  returns 0x00 (0000ms, 2271ms total)
T0E5C 8976:711 JLINK_SetBPEx(Addr = 0x20000000, Type = 0xFFFFFFF2)  returns 0x00000008 (0000ms, 2271ms total)
T0E5C 8976:711 JLINK_Go() -- CPU_ReadMem(4 bytes @ 0xE0001000) (0002ms, 2273ms total)
T0E5C 8976:713 JLINK_IsHalted()  returns FALSE (0001ms, 2274ms total)
T0E5C 8976:719 JLINK_IsHalted() -- CPU_ReadMem(2 bytes @ 0x20000000)  returns TRUE (0003ms, 2276ms total)
T0E5C 8976:722 JLINK_ReadReg(R15 (PC))  returns 0x20000000 (0000ms, 2273ms total)
T0E5C 8976:722 JLINK_ClrBPEx(BPHandle = 0x00000008)  returns 0x00 (0000ms, 2273ms total)
T0E5C 8976:722 JLINK_ReadReg(R0)  returns 0x00000000 (0000ms, 2273ms total)
T0E5C 8976:722 JLINK_WriteMem(0x20000188, 0x0278 Bytes, ...) - Data: 48 60 00 21 0B 48 81 60 C1 60 01 61 41 61 4F F4 ... -- CPU_WriteMem(632 bytes @ 0x20000188)  returns 0x278 (0008ms, 2281ms total)
T0E5C 8976:730 JLINK_WriteMem(0x20000400, 0x0188 Bytes, ...) - Data: E1 68 08 43 17 99 08 43 18 99 08 43 19 99 08 43 ... -- CPU_WriteMem(392 bytes @ 0x20000400)  returns 0x188 (0006ms, 2287ms total)
T0E5C 8976:736 JLINK_WriteReg(R0, 0x08000400)  returns 0x00 (0000ms, 2287ms total)
T0E5C 8976:736 JLINK_WriteReg(R1, 0x00000400)  returns 0x00 (0000ms, 2287ms total)
T0E5C 8976:736 JLINK_WriteReg(R2, 0x20000188)  returns 0x00 (0000ms, 2287ms total)
T0E5C 8976:736 JLINK_WriteReg(R3, 0x00000000)  returns 0x00 (0000ms, 2287ms total)
T0E5C 8976:736 JLINK_WriteReg(R4, 0x00000000)  returns 0x00 (0000ms, 2287ms total)
T0E5C 8976:736 JLINK_WriteReg(R5, 0x00000000)  returns 0x00 (0000ms, 2287ms total)
T0E5C 8976:736 JLINK_WriteReg(R6, 0x00000000)  returns 0x00 (0000ms, 2287ms total)
T0E5C 8976:736 JLINK_WriteReg(R7, 0x00000000)  returns 0x00 (0000ms, 2287ms total)
T0E5C 8976:736 JLINK_WriteReg(R8, 0x00000000)  returns 0x00 (0000ms, 2287ms total)
T0E5C 8976:736 JLINK_WriteReg(R9, 0x20000184)  returns 0x00 (0000ms, 2287ms total)
T0E5C 8976:736 JLINK_WriteReg(R10, 0x00000000)  returns 0x00 (0000ms, 2287ms total)
T0E5C 8976:736 JLINK_WriteReg(R11, 0x00000000)  returns 0x00 (0000ms, 2287ms total)
T0E5C 8976:736 JLINK_WriteReg(R12, 0x00000000)  returns 0x00 (0000ms, 2287ms total)
T0E5C 8976:736 JLINK_WriteReg(R13 (SP), 0x20001000)  returns 0x00 (0000ms, 2287ms total)
T0E5C 8976:736 JLINK_WriteReg(R14, 0x20000001)  returns 0x00 (0000ms, 2287ms total)
T0E5C 8976:736 JLINK_WriteReg(R15 (PC), 0x20000112)  returns 0x00 (0000ms, 2287ms total)
T0E5C 8976:736 JLINK_WriteReg(XPSR, 0x01000000)  returns 0x00 (0000ms, 2287ms total)
T0E5C 8976:736 JLINK_WriteReg(MSP, 0x20001000)  returns 0x00 (0000ms, 2287ms total)
T0E5C 8976:736 JLINK_WriteReg(PSP, 0x20001000)  returns 0x00 (0000ms, 2287ms total)
T0E5C 8976:736 JLINK_WriteReg(CFBP, 0x00000000)  returns 0x00 (0000ms, 2287ms total)
T0E5C 8976:736 JLINK_SetBPEx(Addr = 0x20000000, Type = 0xFFFFFFF2)  returns 0x00000009 (0000ms, 2287ms total)
T0E5C 8976:736 JLINK_Go() -- CPU_ReadMem(4 bytes @ 0xE0001000) (0002ms, 2289ms total)
T0E5C 8976:738 JLINK_IsHalted()  returns FALSE (0000ms, 2289ms total)
T0E5C 8976:743 JLINK_IsHalted() -- CPU_ReadMem(2 bytes @ 0x20000000)  returns TRUE (0003ms, 2292ms total)
T0E5C 8976:746 JLINK_ReadReg(R15 (PC))  returns 0x20000000 (0000ms, 2289ms total)
T0E5C 8976:746 JLINK_ClrBPEx(BPHandle = 0x00000009)  returns 0x00 (0000ms, 2289ms total)
T0E5C 8976:746 JLINK_ReadReg(R0)  returns 0x00000000 (0000ms, 2289ms total)
T0E5C 8976:746 JLINK_WriteMem(0x20000188, 0x0278 Bytes, ...) - Data: 80 50 C0 69 08 49 08 43 21 68 01 F5 80 51 C8 61 ... -- CPU_WriteMem(632 bytes @ 0x20000188)  returns 0x278 (0008ms, 2297ms total)
T0E5C 8976:754 JLINK_WriteMem(0x20000400, 0x0188 Bytes, ...) - Data: 1A 46 12 68 42 F4 80 72 1A 60 1A 46 12 68 42 F0 ... -- CPU_WriteMem(392 bytes @ 0x20000400)  returns 0x188 (0005ms, 2302ms total)
T0E5C 8976:759 JLINK_WriteReg(R0, 0x08000800)  returns 0x00 (0000ms, 2302ms total)
T0E5C 8976:759 JLINK_WriteReg(R1, 0x00000400)  returns 0x00 (0000ms, 2302ms total)
T0E5C 8976:759 JLINK_WriteReg(R2, 0x20000188)  returns 0x00 (0000ms, 2302ms total)
T0E5C 8976:759 JLINK_WriteReg(R3, 0x00000000)  returns 0x00 (0001ms, 2303ms total)
T0E5C 8976:760 JLINK_WriteReg(R4, 0x00000000)  returns 0x00 (0000ms, 2303ms total)
T0E5C 8976:760 JLINK_WriteReg(R5, 0x00000000)  returns 0x00 (0000ms, 2303ms total)
T0E5C 8976:760 JLINK_WriteReg(R6, 0x00000000)  returns 0x00 (0000ms, 2303ms total)
T0E5C 8976:760 JLINK_WriteReg(R7, 0x00000000)  returns 0x00 (0000ms, 2303ms total)
T0E5C 8976:760 JLINK_WriteReg(R8, 0x00000000)  returns 0x00 (0000ms, 2303ms total)
T0E5C 8976:760 JLINK_WriteReg(R9, 0x20000184)  returns 0x00 (0000ms, 2303ms total)
T0E5C 8976:760 JLINK_WriteReg(R10, 0x00000000)  returns 0x00 (0000ms, 2303ms total)
T0E5C 8976:760 JLINK_WriteReg(R11, 0x00000000)  returns 0x00 (0000ms, 2303ms total)
T0E5C 8976:760 JLINK_WriteReg(R12, 0x00000000)  returns 0x00 (0000ms, 2303ms total)
T0E5C 8976:760 JLINK_WriteReg(R13 (SP), 0x20001000)  returns 0x00 (0000ms, 2303ms total)
T0E5C 8976:760 JLINK_WriteReg(R14, 0x20000001)  returns 0x00 (0000ms, 2303ms total)
T0E5C 8976:760 JLINK_WriteReg(R15 (PC), 0x20000112)  returns 0x00 (0000ms, 2303ms total)
T0E5C 8976:760 JLINK_WriteReg(XPSR, 0x01000000)  returns 0x00 (0000ms, 2303ms total)
T0E5C 8976:760 JLINK_WriteReg(MSP, 0x20001000)  returns 0x00 (0000ms, 2303ms total)
T0E5C 8976:760 JLINK_WriteReg(PSP, 0x20001000)  returns 0x00 (0000ms, 2303ms total)
T0E5C 8976:760 JLINK_WriteReg(CFBP, 0x00000000)  returns 0x00 (0000ms, 2303ms total)
T0E5C 8976:760 JLINK_SetBPEx(Addr = 0x20000000, Type = 0xFFFFFFF2)  returns 0x0000000A (0000ms, 2303ms total)
T0E5C 8976:760 JLINK_Go() -- CPU_ReadMem(4 bytes @ 0xE0001000) (0002ms, 2305ms total)
T0E5C 8976:762 JLINK_IsHalted()  returns FALSE (0000ms, 2305ms total)
T0E5C 8976:764 JLINK_IsHalted()  returns FALSE (0000ms, 2305ms total)
T0E5C 8976:766 JLINK_IsHalted()  returns FALSE (0000ms, 2305ms total)
T0E5C 8976:768 JLINK_IsHalted() -- CPU_ReadMem(2 bytes @ 0x20000000)  returns TRUE (0003ms, 2308ms total)
T0E5C 8976:771 JLINK_ReadReg(R15 (PC))  returns 0x20000000 (0000ms, 2305ms total)
T0E5C 8976:771 JLINK_ClrBPEx(BPHandle = 0x0000000A)  returns 0x00 (0000ms, 2305ms total)
T0E5C 8976:771 JLINK_ReadReg(R0)  returns 0x00000000 (0000ms, 2305ms total)
T0E5C 8976:771 JLINK_WriteMem(0x20000188, 0x0278 Bytes, ...) - Data: 16 46 00 22 00 BF 94 F8 45 00 01 28 01 D1 02 20 ... -- CPU_WriteMem(632 bytes @ 0x20000188)  returns 0x278 (0008ms, 2313ms total)
T0E5C 8976:779 JLINK_WriteMem(0x20000400, 0x0188 Bytes, ...) - Data: 66 48 86 42 03 D3 6A 48 86 42 00 D2 0A E0 68 48 ... -- CPU_WriteMem(392 bytes @ 0x20000400)  returns 0x188 (0005ms, 2318ms total)
T0E5C 8976:784 JLINK_WriteReg(R0, 0x08000C00)  returns 0x00 (0000ms, 2318ms total)
T0E5C 8976:784 JLINK_WriteReg(R1, 0x00000400)  returns 0x00 (0000ms, 2318ms total)
T0E5C 8976:784 JLINK_WriteReg(R2, 0x20000188)  returns 0x00 (0000ms, 2318ms total)
T0E5C 8976:784 JLINK_WriteReg(R3, 0x00000000)  returns 0x00 (0000ms, 2318ms total)
T0E5C 8976:784 JLINK_WriteReg(R4, 0x00000000)  returns 0x00 (0000ms, 2318ms total)
T0E5C 8976:784 JLINK_WriteReg(R5, 0x00000000)  returns 0x00 (0000ms, 2318ms total)
T0E5C 8976:784 JLINK_WriteReg(R6, 0x00000000)  returns 0x00 (0000ms, 2318ms total)
T0E5C 8976:784 JLINK_WriteReg(R7, 0x00000000)  returns 0x00 (0000ms, 2318ms total)
T0E5C 8976:784 JLINK_WriteReg(R8, 0x00000000)  returns 0x00 (0000ms, 2318ms total)
T0E5C 8976:784 JLINK_WriteReg(R9, 0x20000184)  returns 0x00 (0000ms, 2318ms total)
T0E5C 8976:784 JLINK_WriteReg(R10, 0x00000000)  returns 0x00 (0000ms, 2318ms total)
T0E5C 8976:784 JLINK_WriteReg(R11, 0x00000000)  returns 0x00 (0000ms, 2318ms total)
T0E5C 8976:784 JLINK_WriteReg(R12, 0x00000000)  returns 0x00 (0000ms, 2318ms total)
T0E5C 8976:784 JLINK_WriteReg(R13 (SP), 0x20001000)  returns 0x00 (0000ms, 2318ms total)
T0E5C 8976:784 JLINK_WriteReg(R14, 0x20000001)  returns 0x00 (0000ms, 2318ms total)
T0E5C 8976:784 JLINK_WriteReg(R15 (PC), 0x20000112)  returns 0x00 (0001ms, 2319ms total)
T0E5C 8976:785 JLINK_WriteReg(XPSR, 0x01000000)  returns 0x00 (0000ms, 2319ms total)
T0E5C 8976:785 JLINK_WriteReg(MSP, 0x20001000)  returns 0x00 (0000ms, 2319ms total)
T0E5C 8976:785 JLINK_WriteReg(PSP, 0x20001000)  returns 0x00 (0000ms, 2319ms total)
T0E5C 8976:785 JLINK_WriteReg(CFBP, 0x00000000)  returns 0x00 (0000ms, 2319ms total)
T0E5C 8976:785 JLINK_SetBPEx(Addr = 0x20000000, Type = 0xFFFFFFF2)  returns 0x0000000B (0000ms, 2319ms total)
T0E5C 8976:785 JLINK_Go() -- CPU_ReadMem(4 bytes @ 0xE0001000) (0002ms, 2321ms total)
T0E5C 8976:787 JLINK_IsHalted()  returns FALSE (0000ms, 2321ms total)
T0E5C 8976:789 JLINK_IsHalted()  returns FALSE (0000ms, 2321ms total)
T0E5C 8976:791 JLINK_IsHalted()  returns FALSE (0000ms, 2321ms total)
T0E5C 8976:793 JLINK_IsHalted() -- CPU_ReadMem(2 bytes @ 0x20000000)  returns TRUE (0003ms, 2324ms total)
T0E5C 8976:796 JLINK_ReadReg(R15 (PC))  returns 0x20000000 (0000ms, 2321ms total)
T0E5C 8976:796 JLINK_ClrBPEx(BPHandle = 0x0000000B)  returns 0x00 (0000ms, 2321ms total)
T0E5C 8976:796 JLINK_ReadReg(R0)  returns 0x00000000 (0000ms, 2321ms total)
T0E5C 8976:796 JLINK_WriteMem(0x20000188, 0x0278 Bytes, ...) - Data: 41 46 20 46 FF F7 F0 FA 01 20 84 F8 44 00 00 20 ... -- CPU_WriteMem(632 bytes @ 0x20000188)  returns 0x278 (0008ms, 2329ms total)
T0E5C 8976:804 JLINK_WriteMem(0x20000400, 0x0188 Bytes, ...) - Data: 01 20 82 F8 44 00 00 BF 00 20 82 F8 45 00 00 BF ... -- CPU_WriteMem(392 bytes @ 0x20000400)  returns 0x188 (0004ms, 2333ms total)
T0E5C 8976:808 JLINK_WriteReg(R0, 0x08001000)  returns 0x00 (0000ms, 2333ms total)
T0E5C 8976:808 JLINK_WriteReg(R1, 0x00000400)  returns 0x00 (0000ms, 2333ms total)
T0E5C 8976:808 JLINK_WriteReg(R2, 0x20000188)  returns 0x00 (0000ms, 2333ms total)
T0E5C 8976:808 JLINK_WriteReg(R3, 0x00000000)  returns 0x00 (0000ms, 2333ms total)
T0E5C 8976:808 JLINK_WriteReg(R4, 0x00000000)  returns 0x00 (0000ms, 2333ms total)
T0E5C 8976:808 JLINK_WriteReg(R5, 0x00000000)  returns 0x00 (0000ms, 2333ms total)
T0E5C 8976:808 JLINK_WriteReg(R6, 0x00000000)  returns 0x00 (0000ms, 2333ms total)
T0E5C 8976:808 JLINK_WriteReg(R7, 0x00000000)  returns 0x00 (0000ms, 2333ms total)
T0E5C 8976:808 JLINK_WriteReg(R8, 0x00000000)  returns 0x00 (0000ms, 2333ms total)
T0E5C 8976:808 JLINK_WriteReg(R9, 0x20000184)  returns 0x00 (0000ms, 2333ms total)
T0E5C 8976:808 JLINK_WriteReg(R10, 0x00000000)  returns 0x00 (0000ms, 2333ms total)
T0E5C 8976:808 JLINK_WriteReg(R11, 0x00000000)  returns 0x00 (0000ms, 2333ms total)
T0E5C 8976:808 JLINK_WriteReg(R12, 0x00000000)  returns 0x00 (0000ms, 2333ms total)
T0E5C 8976:808 JLINK_WriteReg(R13 (SP), 0x20001000)  returns 0x00 (0000ms, 2333ms total)
T0E5C 8976:808 JLINK_WriteReg(R14, 0x20000001)  returns 0x00 (0000ms, 2333ms total)
T0E5C 8976:808 JLINK_WriteReg(R15 (PC), 0x20000112)  returns 0x00 (0000ms, 2333ms total)
T0E5C 8976:808 JLINK_WriteReg(XPSR, 0x01000000)  returns 0x00 (0000ms, 2333ms total)
T0E5C 8976:808 JLINK_WriteReg(MSP, 0x20001000)  returns 0x00 (0000ms, 2333ms total)
T0E5C 8976:808 JLINK_WriteReg(PSP, 0x20001000)  returns 0x00 (0000ms, 2333ms total)
T0E5C 8976:808 JLINK_WriteReg(CFBP, 0x00000000)  returns 0x00 (0000ms, 2333ms total)
T0E5C 8976:808 JLINK_SetBPEx(Addr = 0x20000000, Type = 0xFFFFFFF2)  returns 0x0000000C (0000ms, 2333ms total)
T0E5C 8976:809 JLINK_Go() -- CPU_ReadMem(4 bytes @ 0xE0001000) (0001ms, 2335ms total)
T0E5C 8976:811 JLINK_IsHalted()  returns FALSE (0000ms, 2335ms total)
T0E5C 8976:814 JLINK_IsHalted()  returns FALSE (0000ms, 2335ms total)
T0E5C 8976:816 JLINK_IsHalted() -- CPU_ReadMem(2 bytes @ 0x20000000)  returns TRUE (0003ms, 2338ms total)
T0E5C 8976:819 JLINK_ReadReg(R15 (PC))  returns 0x20000000 (0000ms, 2335ms total)
T0E5C 8976:819 JLINK_ClrBPEx(BPHandle = 0x0000000C)  returns 0x00 (0000ms, 2335ms total)
T0E5C 8976:819 JLINK_ReadReg(R0)  returns 0x00000000 (0000ms, 2335ms total)
T0E5C 8976:819 JLINK_WriteMem(0x20000188, 0x0278 Bytes, ...) - Data: 45 00 00 BF 03 20 CE E7 20 68 05 69 05 F0 01 00 ... -- CPU_WriteMem(632 bytes @ 0x20000188)  returns 0x278 (0008ms, 2343ms total)
T0E5C 8976:827 JLINK_WriteMem(0x20000400, 0x0188 Bytes, ...) - Data: 0F E0 27 4E B0 42 01 D1 07 26 0A E0 25 4E B0 42 ... -- CPU_WriteMem(392 bytes @ 0x20000400)  returns 0x188 (0005ms, 2348ms total)
T0E5C 8976:832 JLINK_WriteReg(R0, 0x08001400)  returns 0x00 (0000ms, 2348ms total)
T0E5C 8976:832 JLINK_WriteReg(R1, 0x00000400)  returns 0x00 (0000ms, 2348ms total)
T0E5C 8976:832 JLINK_WriteReg(R2, 0x20000188)  returns 0x00 (0000ms, 2348ms total)
T0E5C 8976:832 JLINK_WriteReg(R3, 0x00000000)  returns 0x00 (0000ms, 2348ms total)
T0E5C 8976:832 JLINK_WriteReg(R4, 0x00000000)  returns 0x00 (0000ms, 2348ms total)
T0E5C 8976:832 JLINK_WriteReg(R5, 0x00000000)  returns 0x00 (0000ms, 2348ms total)
T0E5C 8976:832 JLINK_WriteReg(R6, 0x00000000)  returns 0x00 (0000ms, 2348ms total)
T0E5C 8976:832 JLINK_WriteReg(R7, 0x00000000)  returns 0x00 (0000ms, 2348ms total)
T0E5C 8976:832 JLINK_WriteReg(R8, 0x00000000)  returns 0x00 (0000ms, 2348ms total)
T0E5C 8976:832 JLINK_WriteReg(R9, 0x20000184)  returns 0x00 (0000ms, 2348ms total)
T0E5C 8976:832 JLINK_WriteReg(R10, 0x00000000)  returns 0x00 (0000ms, 2348ms total)
T0E5C 8976:832 JLINK_WriteReg(R11, 0x00000000)  returns 0x00 (0000ms, 2348ms total)
T0E5C 8976:832 JLINK_WriteReg(R12, 0x00000000)  returns 0x00 (0000ms, 2348ms total)
T0E5C 8976:832 JLINK_WriteReg(R13 (SP), 0x20001000)  returns 0x00 (0000ms, 2348ms total)
T0E5C 8976:832 JLINK_WriteReg(R14, 0x20000001)  returns 0x00 (0000ms, 2348ms total)
T0E5C 8976:832 JLINK_WriteReg(R15 (PC), 0x20000112)  returns 0x00 (0000ms, 2348ms total)
T0E5C 8976:832 JLINK_WriteReg(XPSR, 0x01000000)  returns 0x00 (0000ms, 2348ms total)
T0E5C 8976:832 JLINK_WriteReg(MSP, 0x20001000)  returns 0x00 (0000ms, 2348ms total)
T0E5C 8976:832 JLINK_WriteReg(PSP, 0x20001000)  returns 0x00 (0000ms, 2348ms total)
T0E5C 8976:832 JLINK_WriteReg(CFBP, 0x00000000)  returns 0x00 (0000ms, 2348ms total)
T0E5C 8976:832 JLINK_SetBPEx(Addr = 0x20000000, Type = 0xFFFFFFF2)  returns 0x0000000D (0000ms, 2348ms total)
T0E5C 8976:833 JLINK_Go() -- CPU_ReadMem(4 bytes @ 0xE0001000) (0001ms, 2350ms total)
T0E5C 8976:834 JLINK_IsHalted()  returns FALSE (0001ms, 2351ms total)
T0E5C 8976:839 JLINK_IsHalted() -- CPU_ReadMem(2 bytes @ 0x20000000)  returns TRUE (0003ms, 2353ms total)
T0E5C 8976:842 JLINK_ReadReg(R15 (PC))  returns 0x20000000 (0000ms, 2350ms total)
T0E5C 8976:842 JLINK_ClrBPEx(BPHandle = 0x0000000D)  returns 0x00 (0000ms, 2350ms total)
T0E5C 8976:842 JLINK_ReadReg(R0)  returns 0x00000000 (0000ms, 2350ms total)
T0E5C 8976:842 JLINK_WriteMem(0x20000188, 0x0278 Bytes, ...) - Data: 90 68 4F 00 03 26 BE 40 B0 43 4F 00 DE 68 BE 40 ... -- CPU_WriteMem(632 bytes @ 0x20000188)  returns 0x278 (0008ms, 2358ms total)
T0E5C 8976:850 JLINK_WriteMem(0x20000400, 0x0188 Bytes, ...) - Data: 1F 02 01 21 91 40 42 09 92 00 02 F1 E0 22 C2 F8 ... -- CPU_WriteMem(392 bytes @ 0x20000400)  returns 0x188 (0006ms, 2364ms total)
T0E5C 8976:856 JLINK_WriteReg(R0, 0x08001800)  returns 0x00 (0000ms, 2364ms total)
T0E5C 8976:856 JLINK_WriteReg(R1, 0x00000400)  returns 0x00 (0000ms, 2364ms total)
T0E5C 8976:856 JLINK_WriteReg(R2, 0x20000188)  returns 0x00 (0000ms, 2364ms total)
T0E5C 8976:856 JLINK_WriteReg(R3, 0x00000000)  returns 0x00 (0000ms, 2364ms total)
T0E5C 8976:856 JLINK_WriteReg(R4, 0x00000000)  returns 0x00 (0000ms, 2364ms total)
T0E5C 8976:856 JLINK_WriteReg(R5, 0x00000000)  returns 0x00 (0000ms, 2364ms total)
T0E5C 8976:856 JLINK_WriteReg(R6, 0x00000000)  returns 0x00 (0000ms, 2364ms total)
T0E5C 8976:856 JLINK_WriteReg(R7, 0x00000000)  returns 0x00 (0000ms, 2364ms total)
T0E5C 8976:856 JLINK_WriteReg(R8, 0x00000000)  returns 0x00 (0000ms, 2364ms total)
T0E5C 8976:856 JLINK_WriteReg(R9, 0x20000184)  returns 0x00 (0000ms, 2364ms total)
T0E5C 8976:856 JLINK_WriteReg(R10, 0x00000000)  returns 0x00 (0000ms, 2364ms total)
T0E5C 8976:856 JLINK_WriteReg(R11, 0x00000000)  returns 0x00 (0000ms, 2364ms total)
T0E5C 8976:856 JLINK_WriteReg(R12, 0x00000000)  returns 0x00 (0000ms, 2364ms total)
T0E5C 8976:856 JLINK_WriteReg(R13 (SP), 0x20001000)  returns 0x00 (0000ms, 2364ms total)
T0E5C 8976:856 JLINK_WriteReg(R14, 0x20000001)  returns 0x00 (0000ms, 2364ms total)
T0E5C 8976:856 JLINK_WriteReg(R15 (PC), 0x20000112)  returns 0x00 (0000ms, 2364ms total)
T0E5C 8976:856 JLINK_WriteReg(XPSR, 0x01000000)  returns 0x00 (0000ms, 2364ms total)
T0E5C 8976:856 JLINK_WriteReg(MSP, 0x20001000)  returns 0x00 (0000ms, 2364ms total)
T0E5C 8976:856 JLINK_WriteReg(PSP, 0x20001000)  returns 0x00 (0000ms, 2364ms total)
T0E5C 8976:856 JLINK_WriteReg(CFBP, 0x00000000)  returns 0x00 (0000ms, 2364ms total)
T0E5C 8976:856 JLINK_SetBPEx(Addr = 0x20000000, Type = 0xFFFFFFF2)  returns 0x0000000E (0000ms, 2364ms total)
T0E5C 8976:856 JLINK_Go() -- CPU_ReadMem(4 bytes @ 0xE0001000) (0002ms, 2366ms total)
T0E5C 8976:858 JLINK_IsHalted()  returns FALSE (0000ms, 2366ms total)
T0E5C 8976:862 JLINK_IsHalted()  returns FALSE (0000ms, 2366ms total)
T0E5C 8976:864 JLINK_IsHalted() -- CPU_ReadMem(2 bytes @ 0x20000000)  returns TRUE (0003ms, 2369ms total)
T0E5C 8976:867 JLINK_ReadReg(R15 (PC))  returns 0x20000000 (0000ms, 2366ms total)
T0E5C 8976:867 JLINK_ClrBPEx(BPHandle = 0x0000000E)  returns 0x00 (0000ms, 2366ms total)
T0E5C 8976:867 JLINK_ReadReg(R0)  returns 0x00000000 (0000ms, 2366ms total)
T0E5C 8976:867 JLINK_WriteMem(0x20000188, 0x0278 Bytes, ...) - Data: 20 78 00 F0 02 00 02 28 07 D1 9E 48 00 68 20 F0 ... -- CPU_WriteMem(632 bytes @ 0x20000188)  returns 0x278 (0008ms, 2374ms total)
T0E5C 8976:875 JLINK_WriteMem(0x20000400, 0x0188 Bytes, ...) - Data: FF F7 CC FD 00 20 BE E6 00 3C 02 40 08 38 02 40 ... -- CPU_WriteMem(392 bytes @ 0x20000400)  returns 0x188 (0005ms, 2379ms total)
T0E5C 8976:880 JLINK_WriteReg(R0, 0x08001C00)  returns 0x00 (0000ms, 2379ms total)
T0E5C 8976:880 JLINK_WriteReg(R1, 0x00000400)  returns 0x00 (0000ms, 2379ms total)
T0E5C 8976:880 JLINK_WriteReg(R2, 0x20000188)  returns 0x00 (0000ms, 2379ms total)
T0E5C 8976:880 JLINK_WriteReg(R3, 0x00000000)  returns 0x00 (0000ms, 2379ms total)
T0E5C 8976:880 JLINK_WriteReg(R4, 0x00000000)  returns 0x00 (0000ms, 2379ms total)
T0E5C 8976:880 JLINK_WriteReg(R5, 0x00000000)  returns 0x00 (0000ms, 2379ms total)
T0E5C 8976:880 JLINK_WriteReg(R6, 0x00000000)  returns 0x00 (0000ms, 2379ms total)
T0E5C 8976:880 JLINK_WriteReg(R7, 0x00000000)  returns 0x00 (0001ms, 2380ms total)
T0E5C 8976:881 JLINK_WriteReg(R8, 0x00000000)  returns 0x00 (0000ms, 2380ms total)
T0E5C 8976:881 JLINK_WriteReg(R9, 0x20000184)  returns 0x00 (0000ms, 2380ms total)
T0E5C 8976:881 JLINK_WriteReg(R10, 0x00000000)  returns 0x00 (0000ms, 2380ms total)
T0E5C 8976:881 JLINK_WriteReg(R11, 0x00000000)  returns 0x00 (0000ms, 2380ms total)
T0E5C 8976:881 JLINK_WriteReg(R12, 0x00000000)  returns 0x00 (0000ms, 2380ms total)
T0E5C 8976:881 JLINK_WriteReg(R13 (SP), 0x20001000)  returns 0x00 (0000ms, 2380ms total)
T0E5C 8976:881 JLINK_WriteReg(R14, 0x20000001)  returns 0x00 (0000ms, 2380ms total)
T0E5C 8976:881 JLINK_WriteReg(R15 (PC), 0x20000112)  returns 0x00 (0000ms, 2380ms total)
T0E5C 8976:881 JLINK_WriteReg(XPSR, 0x01000000)  returns 0x00 (0000ms, 2380ms total)
T0E5C 8976:881 JLINK_WriteReg(MSP, 0x20001000)  returns 0x00 (0000ms, 2380ms total)
T0E5C 8976:881 JLINK_WriteReg(PSP, 0x20001000)  returns 0x00 (0000ms, 2380ms total)
T0E5C 8976:881 JLINK_WriteReg(CFBP, 0x00000000)  returns 0x00 (0000ms, 2380ms total)
T0E5C 8976:881 JLINK_SetBPEx(Addr = 0x20000000, Type = 0xFFFFFFF2)  returns 0x0000000F (0000ms, 2380ms total)
T0E5C 8976:881 JLINK_Go() -- CPU_ReadMem(4 bytes @ 0xE0001000) (0002ms, 2382ms total)
T0E5C 8976:883 JLINK_IsHalted()  returns FALSE (0000ms, 2382ms total)
T0E5C 8976:887 JLINK_IsHalted() -- CPU_ReadMem(2 bytes @ 0x20000000)  returns TRUE (0003ms, 2385ms total)
T0E5C 8976:890 JLINK_ReadReg(R15 (PC))  returns 0x20000000 (0000ms, 2382ms total)
T0E5C 8976:890 JLINK_ClrBPEx(BPHandle = 0x0000000F)  returns 0x00 (0000ms, 2382ms total)
T0E5C 8976:890 JLINK_ReadReg(R0)  returns 0x00000000 (0000ms, 2382ms total)
T0E5C 8976:891 JLINK_WriteMem(0x20000188, 0x0278 Bytes, ...) - Data: 80 0F 0B D1 ED 48 08 38 00 68 C0 F3 40 40 00 28 ... -- CPU_WriteMem(632 bytes @ 0x20000188)  returns 0x278 (0007ms, 2389ms total)
T0E5C 8976:898 JLINK_WriteMem(0x20000400, 0x0188 Bytes, ...) - Data: 20 7A 50 49 68 31 08 70 A0 68 A0 B1 FF F7 9A FB ... -- CPU_WriteMem(392 bytes @ 0x20000400)  returns 0x188 (0006ms, 2395ms total)
